<Qucs Dataset 0.0.18>
<indep acfrequency 50>
  +1.00000000000e-01
  +1.26485521686e-01
  +1.59985871961e-01
  +2.02358964773e-01
  +2.55954792270e-01
  +3.23745754282e-01
  +4.09491506238e-01
  +5.17947467923e-01
  +6.55128556860e-01
  +8.28642772855e-01
  +1.04811313415e+00
  +1.32571136559e+00
  +1.67683293681e+00
  +2.12095088792e+00
  +2.68269579528e+00
  +3.39322177190e+00
  +4.29193426013e+00
  +5.42867543932e+00
  +6.86648845004e+00
  +8.68511373751e+00
  +1.09854114199e+01
  +1.38949549437e+01
  +1.75751062485e+01
  +2.22299648253e+01
  +2.81176869797e+01
  +3.55648030622e+01
  +4.49843266897e+01
  +5.68986602902e+01
  +7.19685673001e+01
  +9.10298177992e+01
  +1.15139539933e+02
  +1.45634847750e+02
  +1.84206996933e+02
  +2.32995181052e+02
  +2.94705170255e+02
  +3.72759372031e+02
  +4.71486636346e+02
  +5.96362331659e+02
  +7.54312006335e+02
  +9.54095476350e+02
  +1.20679264064e+03
  +1.52641796718e+03
  +1.93069772888e+03
  +2.44205309455e+03
  +3.08884359648e+03
  +3.90693993705e+03
  +4.94171336132e+03
  +6.25055192527e+03
  +7.90604321091e+03
  +1.00000000000e+04
</indep>
<dep d1 acfrequency>
  -2.32258318832e+01
  -2.11953506256e+01
  -1.91710189721e+01
  -1.71564489020e+01
  -1.51573022338e+01
  -1.31823472945e+01
  -1.12449065239e+01
  -9.36462405543e+00
  -7.56914561157e+00
  -5.89468119132e+00
  -4.38372215406e+00
  -3.07831539421e+00
  -2.00960647449e+00
  -1.18844049645e+00
  -6.03466960890e-01
  -2.28786702981e-01
  -3.65702640928e-02
  -8.23391223893e-03
  -1.40759214459e-01
  -4.47635765085e-01
  -9.54467145684e-01
  -1.68932810062e+00
  -2.67002352527e+00
  -3.89391054948e+00
  -5.33625511383e+00
  -6.95760248095e+00
  -8.71460201752e+00
  -1.05683408455e+01
  -1.24880863670e+01
  -1.44515127787e+01
  -1.64432608027e+01
  -1.84531284882e+01
  -2.04744898414e+01
  -2.25031022048e+01
  -2.45362732715e+01
  -2.65723041792e+01
  -2.86101267272e+01
  -3.06490707489e+01
  -3.26887163796e+01
  -3.47288007994e+01
  -3.67691595824e+01
  -3.88096898950e+01
  -4.08503274376e+01
  -4.28910320107e+01
  -4.49317784837e+01
  -4.69725511474e+01
  -4.90133401820e+01
  -5.10541394495e+01
  -5.30949451132e+01
  -5.51357547748e+01
</dep>
<dep d2 acfrequency>
  +8.60447309574e+01
  +8.50007333354e+01
  +8.36838613885e+01
  +8.20255040249e+01
  +7.99424976991e+01
  +7.73367030406e+01
  +7.40974159175e+01
  +7.01092942380e+01
  +6.52693611344e+01
  +5.95157654083e+01
  +5.28653748752e+01
  +4.54451813557e+01
  +3.74908823529e+01
  +2.92936537902e+01
  +2.11114032962e+01
  +1.30929545197e+01
  +5.25399590777e+00
  -2.49439355396e+00
  -1.02871547299e+01
  -1.82371230538e+01
  -2.63711814784e+01
  -3.45881778339e+01
  -4.26625243819e+01
  -5.03042225560e+01
  -5.72491112449e+01
  -6.33288392817e+01
  -6.84898913538e+01
  -7.27705771962e+01
  -7.62631558632e+01
  -7.90810994382e+01
  -8.13380600391e+01
  -8.31371392788e+01
  -8.45668812993e+01
  -8.57009241416e+01
  -8.65993339600e+01
  -8.73105286589e+01
  -8.78732520186e+01
  -8.83183661190e+01
  -8.86703853430e+01
  -8.89487476983e+01
  -8.91688490893e+01
  -8.93428755013e+01
  -8.94804681086e+01
  -8.95892526674e+01
  -8.96752598153e+01
  -8.97432582315e+01
  -8.97970184653e+01
  -8.98395217323e+01
  -8.98731250945e+01
  -8.98996921053e+01
</dep>
<dep V1.i acfrequency>
  -4.32537859301e-04-j6.25576011153e-03
  -6.90354646530e-04-j7.89195310319e-03
  -1.10028557079e-03-j9.94059015569e-03
  -1.74969529762e-03-j1.24900670631e-02
  -2.77253534569e-03-j1.56320732965e-02
  -4.36890484033e-03-j1.94444294799e-02
  -6.82522012141e-03-j2.39560206793e-02
  -1.05231293629e-02-j2.90845641589e-02
  -1.59108270017e-02-j3.45439488544e-02
  -2.33958697945e-02-j3.97433079977e-02
  -3.31310423357e-02-j4.37521082162e-02
  -4.47482211171e-02-j4.54490572885e-02
  -5.72330206029e-02-j4.39019729131e-02
  -6.91453955218e-02-j3.87925163604e-02
  -7.91153254155e-02-j3.05461551574e-02
  -8.62439510767e-02-j2.00584169732e-02
  -9.01467945069e-02-j8.28966688860e-03
  -9.07368970708e-02+j3.95276290451e-03
  -8.80098728174e-02+j1.59737226569e-02
  -8.20056430194e-02+j2.70209727672e-02
  -7.29727310457e-02+j3.61782415859e-02
  -6.16133049101e-02+j4.24854115590e-02
  -4.91592176132e-02+j4.53033233513e-02
  -3.70865350737e-02+j4.46776465891e-02
  -2.66061358019e-02+j4.13624607107e-02
  -1.83166930141e-02+j3.64644027430e-02
  -1.22221360319e-02+j3.10116537199e-02
  -7.97578117885e-03+j2.57188244453e-02
  -5.12623696694e-03+j2.09700557226e-02
  -3.26179030070e-03+j1.69081966811e-02
  -2.06196474038e-03+j1.35351262072e-02
  -1.29805909966e-03+j1.07851942621e-02
  -8.15001354832e-04+j8.56894422021e-03
  -5.10854348293e-04+j6.79561124735e-03
  -3.19874770785e-04+j5.38304790503e-03
  -2.00159817755e-04+j4.26101902319e-03
  -1.25197207498e-04+j3.37133356065e-03
  -7.82889088161e-05+j2.66665415371e-03
  -4.89480817712e-05+j2.10889300365e-03
  -3.06004092588e-05+j1.66760876770e-03
  -1.91289598933e-05+j1.31857136206e-03
  -1.19574431661e-05+j1.04254367169e-03
  -7.47436962772e-06+j8.24276823509e-04
  -4.67201376625e-06+j6.51695248174e-04
  -2.92031343517e-06+j5.15242187064e-04
  -1.82537542823e-06+j4.07357200442e-04
  -1.14096755977e-06+j3.22060587170e-04
  -7.13170499057e-07+j2.54623591052e-04
  -4.45772018059e-07+j2.01307054526e-04
  -2.78632542174e-07+j1.59154495603e-04
</dep>
<dep _net0.v acfrequency>
  +1.00000000000e+00
  +1.00000000000e+00
  +1.00000000000e+00
  +1.00000000000e+00
  +1.00000000000e+00
  +1.00000000000e+00
  +1.00000000000e+00
  +1.00000000000e+00
  +1.00000000000e+00
  +1.00000000000e+00
  +1.00000000000e+00
  +1.00000000000e+00
  +1.00000000000e+00
  +1.00000000000e+00
  +1.00000000000e+00
  +1.00000000000e+00
  +1.00000000000e+00
  +1.00000000000e+00
  +1.00000000000e+00
  +1.00000000000e+00
  +1.00000000000e+00
  +1.00000000000e+00
  +1.00000000000e+00
  +1.00000000000e+00
  +1.00000000000e+00
  +1.00000000000e+00
  +1.00000000000e+00
  +1.00000000000e+00
  +1.00000000000e+00
  +1.00000000000e+00
  +1.00000000000e+00
  +1.00000000000e+00
  +1.00000000000e+00
  +1.00000000000e+00
  +1.00000000000e+00
  +1.00000000000e+00
  +1.00000000000e+00
  +1.00000000000e+00
  +1.00000000000e+00
  +1.00000000000e+00
  +1.00000000000e+00
  +1.00000000000e+00
  +1.00000000000e+00
  +1.00000000000e+00
  +1.00000000000e+00
  +1.00000000000e+00
  +1.00000000000e+00
  +1.00000000000e+00
  +1.00000000000e+00
  +1.00000000000e+00
</dep>
<dep Vout.v acfrequency>
  +4.75791645231e-03+j6.88133612269e-02
  +7.59390111183e-03+j8.68114841351e-02
  +1.21031412787e-02+j1.09346491713e-01
  +1.92466482738e-02+j1.37390737694e-01
  +3.04978888026e-02+j1.71952806261e-01
  +4.80579532437e-02+j2.13888724279e-01
  +7.50774213355e-02+j2.63516227472e-01
  +1.15754422992e-01+j3.19930205748e-01
  +1.75019097019e-01+j3.79983437399e-01
  +2.57354567739e-01+j4.37176387975e-01
  +3.64441465693e-01+j4.81273190378e-01
  +4.92230432289e-01+j4.99939630173e-01
  +6.29563226632e-01+j4.82921702044e-01
  +7.60599350739e-01+j4.26717679964e-01
  +8.70268579570e-01+j3.36007706732e-01
  +9.48683461844e-01+j2.20642586705e-01
  +9.91614739576e-01+j9.11863357746e-02
  +9.98105867779e-01-j4.34803919496e-02
  +9.68108600991e-01-j1.75710949226e-01
  +9.02062073213e-01-j2.97230700439e-01
  +8.02700041503e-01-j3.97960657445e-01
  +6.77746354011e-01-j4.67339527149e-01
  +5.40751393745e-01-j4.98336556865e-01
  +4.07951885810e-01-j4.91454112481e-01
  +2.92667493821e-01-j4.54987067818e-01
  +2.01483623156e-01-j4.01108430173e-01
  +1.34443496351e-01-j3.41128190919e-01
  +8.77335929673e-02-j2.82907068898e-01
  +5.63886066364e-02-j2.30670612948e-01
  +3.58796933077e-02-j1.85990163492e-01
  +2.26816121442e-02-j1.48886388279e-01
  +1.42786500963e-02-j1.18637136883e-01
  +8.96501490315e-03-j9.42583864223e-02
  +5.61939783122e-03-j7.47517237208e-02
  +3.51862247864e-03-j5.92135269553e-02
  +2.20175799530e-03-j4.68712092551e-02
  +1.37716928247e-03-j3.70846691672e-02
  +8.61177996976e-04-j2.93331956908e-02
  +5.38428899483e-04-j2.31978230402e-02
  +3.36604501847e-04-j1.83436964447e-02
  +2.10418558826e-04-j1.45042849826e-02
  +1.31531874827e-04-j1.14679803886e-02
  +8.22180659045e-05-j9.06704505859e-03
  +5.13921514280e-05-j7.16864772991e-03
  +3.21234477860e-05-j5.66766405770e-03
  +2.00791297109e-05-j4.48092920487e-03
  +1.25506431577e-05-j3.54266645887e-03
  +7.84487548899e-06-j2.80085950157e-03
  +4.90349219939e-06-j2.21437759978e-03
  +3.06495796321e-06-j1.75069945163e-03
</dep>
<dep _net1.v acfrequency>
  +1.00039306100e+00-j2.71771552236e-05
  +1.00062719874e+00-j5.48646909220e-05
  +1.00099924888e+00-j1.10603002978e-04
  +1.00158806066e+00-j2.22466561337e-04
  +1.00251396783e+00-j4.45882292237e-04
  +1.00395529750e+00-j8.88702773185e-04
  +1.00616367095e+00-j1.75606840330e-03
  +1.00946516399e+00-j3.42460504352e-03
  +1.01421930536e+00-j6.54936436756e-03
  +1.02069241728e+00-j1.21810972648e-02
  +1.02881290293e+00-j2.18184116344e-02
  +1.03785765659e+00-j3.72738817736e-02
  +1.04625446922e+00-j6.02998638658e-02
  +1.05169617759e+00-j9.21454182814e-02
  +1.05148821671e+00-j1.33355802032e-01
  +1.04276502876e+00-j1.83874183737e-01
  +1.02235475985e+00-j2.43099025559e-01
  +9.86517373271e-01-j3.09497873581e-01
  +9.31083898497e-01-j3.79704684913e-01
  +8.52546067862e-01-j4.47506262077e-01
  +7.50285564150e-01-j5.03682422547e-01
  +6.29082912595e-01-j5.37912350712e-01
  +4.99726049443e-01-j5.42853684506e-01
  +3.75965023230e-01-j5.18006135507e-01
  +2.69255041419e-01-j4.70046976666e-01
  +1.85165551794e-01-j4.09305276446e-01
  +1.23471546015e-01-j3.45452393386e-01
  +8.05396133198e-02-j2.85138026522e-01
  +5.17511820629e-02-j2.31804255014e-01
  +3.29234937397e-02-j1.86560449210e-01
  +2.08106803666e-02-j1.49171409290e-01
  +1.31000056952e-02-j1.18778993399e-01
  +8.22465766785e-03-j9.43288025826e-02
  +5.15520148327e-03-j7.47866192901e-02
  +3.22791204344e-03-j5.92308017289e-02
  +2.01982769629e-03-j4.68797553647e-02
  +1.26336660820e-03-j3.70888953219e-02
  +7.90011330748e-04-j2.93352850358e-02
  +4.93932624312e-04-j2.31988558130e-02
  +3.08786722065e-04-j1.83442068975e-02
  +1.93028897751e-04-j1.45045372603e-02
  +1.20661590127e-04-j1.14681050652e-02
  +7.54232305983e-05-j9.06710667274e-03
  +4.71448842262e-05-j7.16867817864e-03
  +2.94686244387e-05-j5.66767910483e-03
  +1.84197002572e-05-j4.48093664080e-03
  +1.15134009975e-05-j3.54267013352e-03
  +7.19653909201e-06-j2.80086131749e-03
  +4.49824507447e-06-j2.21437849716e-03
  +2.81165571630e-06-j1.75069989509e-03
</dep>
