<Qucs Dataset 0.0.18>
<indep acfrequency 19>
  +1.00000000000e+00
  +5.55556500000e+05
  +1.11111200000e+06
  +1.66666750000e+06
  +2.22222300000e+06
  +2.77777850000e+06
  +3.33333400000e+06
  +3.88888950000e+06
  +4.44444500000e+06
  +5.00000050000e+06
  +5.55555600000e+06
  +6.11111150000e+06
  +6.66666700000e+06
  +7.22222250000e+06
  +7.77777800000e+06
  +8.33333350000e+06
  +8.88888900000e+06
  +9.44444450000e+06
  +1.00000000000e+07
</indep>
<dep V2.i acfrequency>
  +3.01876061227e-05-j6.92658045511e-10
  -1.95018323985e-05-j7.00876442977e-06
  -2.09180914310e-05-j4.12753098249e-06
  -2.22013672287e-05-j2.88098077948e-06
  -2.35213447640e-05-j1.52529975885e-06
  -2.45578866770e-05+j2.70066270593e-07
  -2.49905706517e-05+j2.37276000411e-06
  -2.47141161932e-05+j4.42549493688e-06
  -2.38916368899e-05+j6.08962314688e-06
  -2.28400124900e-05+j7.21587573803e-06
  -2.18570227238e-05+j7.87379766598e-06
  -2.10956333850e-05+j8.25850158561e-06
  -2.05539355600e-05+j8.55303515492e-06
  -2.01571976602e-05+j8.85386563754e-06
  -1.98350464826e-05+j9.18380991328e-06
  -1.95471814883e-05+j9.53363345810e-06
  -1.92774591317e-05+j9.88926607503e-06
  -1.90222807713e-05+j1.02412669701e-05
  -1.87827732986e-05+j1.05856196978e-05
</dep>
<dep V3.i acfrequency>
  -3.64727494630e-05+j1.51306103739e-10
  -2.57381758808e-05+j6.10000517372e-07
  -2.61300852683e-05-j7.61117608416e-07
  -2.68974684715e-05-j1.36138515970e-06
  -2.77707569891e-05-j1.41779002329e-06
  -2.84905348287e-05-j9.95181468923e-07
  -2.88304900917e-05-j2.77921496102e-07
  -2.87161936517e-05+j4.49073287083e-07
  -2.82632125107e-05+j9.30853694408e-07
  -2.77013980191e-05+j1.05644735493e-06
  -2.72469761177e-05+j8.83605447522e-07
  -2.70015490679e-05+j5.67019843294e-07
  -2.69442190591e-05+j2.46028494357e-07
  -2.70013734169e-05-j1.48434960805e-08
  -2.71104838521e-05-j2.11225514274e-07
  -2.72388134340e-05-j3.61841494712e-07
  -2.73757351895e-05-j4.85631225978e-07
  -2.75213832127e-05-j5.94731093893e-07
  -2.76794091443e-05-j6.94791893444e-07
</dep>
<dep V4.i acfrequency>
  -6.66603598073e-05+j8.43385335323e-10
  -6.27059679293e-06+j7.24029571649e-06
  -5.36905679472e-06+j2.64107606869e-06
  -5.03952223095e-06+j5.15883339301e-07
  -4.80508132245e-06-j1.07731329955e-06
  -4.67052499112e-06-j2.52927884113e-06
  -4.67796441637e-06-j3.92487802759e-06
  -4.83829362496e-06-j5.24988521447e-06
  -5.12254928641e-06-j6.47363223856e-06
  -5.48313893855e-06-j7.58485176003e-06
  -5.87710397800e-06-j8.59572088452e-06
  -6.27854837468e-06-j9.53132841228e-06
  -6.67932416146e-06-j1.04166046553e-05
  -7.08188752277e-06-j1.12685670780e-05
  -7.49163282313e-06-j1.20959286775e-05
  -7.91300879172e-06-j1.29021414062e-05
  -8.34871914418e-06-j1.36881431498e-05
  -8.80007681385e-06-j1.44538683117e-05
  -9.26748634155e-06-j1.51989061619e-05
</dep>
<dep Vout.v acfrequency>
  -9.99895873660e-01+j1.39245580048e-05
  -4.85293227597e-03+j1.29299995959e-01
  +7.87834479433e-03+j6.40971588851e-02
  +1.01886647192e-02+j4.11252250137e-02
  +1.07181330021e-02+j2.89017146579e-02
  +1.04567455509e-02+j2.10424891288e-02
  +9.66333154725e-03+j1.55412009438e-02
  +8.53091664209e-03+j1.16101550247e-02
  +7.25421761104e-03+j8.84335649688e-03
  +6.00010728352e-03+j6.96126985561e-03
  +4.89061161956e-03+j5.73410253686e-03
  +3.99281242141e-03+j4.95724841937e-03
  +3.31366100452e-03+j4.45852572043e-03
  +2.81743374246e-03+j4.11598650185e-03
  +2.45560967156e-03+j3.85849119751e-03
  +2.18655197123e-03+j3.65028157676e-03
  +1.98079209515e-03+j3.47465245485e-03
  +1.81914696159e-03+j3.32361829145e-03
  +1.68942481552e-03+j3.19283732019e-03
</dep>
<dep _net0.v acfrequency>
  +9.46028908132e-06+j1.26507800299e-06
  +9.05941048106e-02+j1.08604435747e-02
  +9.19464148079e-02+j3.96161410304e-03
  +9.24407166536e-02+j7.73825008951e-04
  +9.27923780163e-02-j1.61596994932e-03
  +9.29942125133e-02-j3.79391826169e-03
  +9.29830533754e-02-j5.88731704139e-03
  +9.27425595626e-02-j7.87482782171e-03
  +9.23161760704e-02-j9.71044835784e-03
  +9.17752915922e-02-j1.13772776401e-02
  +9.11843440330e-02-j1.28935813268e-02
  +9.05821774380e-02-j1.42969926184e-02
  +8.99810137578e-02-j1.56249069830e-02
  +8.93771687158e-02-j1.69028506170e-02
  +8.87625507653e-02-j1.81438930163e-02
  +8.81304868124e-02-j1.93532121093e-02
  +8.74769212837e-02-j2.05322147247e-02
  +8.67998847792e-02-j2.16808024675e-02
  +8.60987704877e-02-j2.27983592428e-02
</dep>
<dep Vin.v acfrequency>
  +1.00000000000e-01
  +1.00000000000e-01
  +1.00000000000e-01
  +1.00000000000e-01
  +1.00000000000e-01
  +1.00000000000e-01
  +1.00000000000e-01
  +1.00000000000e-01
  +1.00000000000e-01
  +1.00000000000e-01
  +1.00000000000e-01
  +1.00000000000e-01
  +1.00000000000e-01
  +1.00000000000e-01
  +1.00000000000e-01
  +1.00000000000e-01
  +1.00000000000e-01
  +1.00000000000e-01
  +1.00000000000e-01
</dep>
<dep _net2.v acfrequency>
  +0.00000000000e+00
  +0.00000000000e+00
  +0.00000000000e+00
  +0.00000000000e+00
  +0.00000000000e+00
  +0.00000000000e+00
  +0.00000000000e+00
  +0.00000000000e+00
  +0.00000000000e+00
  +0.00000000000e+00
  +0.00000000000e+00
  +0.00000000000e+00
  +0.00000000000e+00
  +0.00000000000e+00
  +0.00000000000e+00
  +0.00000000000e+00
  +0.00000000000e+00
  +0.00000000000e+00
  +0.00000000000e+00
</dep>
<dep _net1.v acfrequency>
  -3.33066907388e-16
  +1.73472347598e-18-j2.77555756156e-17
  +8.67361737988e-19-j2.08166817117e-17
  +3.46944695195e-18
  +0.00000000000e+00
  -8.67361737988e-19+j3.46944695195e-18
  -8.67361737988e-19-j5.20417042793e-18
  +8.67361737988e-19+j3.46944695195e-18
  +0.00000000000e+00+j4.33680868994e-18
  +1.73472347598e-18
  +8.67361737988e-19+j2.60208521397e-18
  -4.33680868994e-19-j8.67361737988e-19
  +4.33680868994e-19+j8.67361737988e-19
  -6.50521303491e-19
  +2.16840434497e-19
  -3.25260651746e-19+j8.67361737988e-19
  -3.25260651746e-19-j4.33680868994e-19
  -2.16840434497e-19-j4.33680868994e-19
  +3.25260651746e-19-j8.67361737988e-19
</dep>
<indep V2.I 1>
  -2.85774248292e-03
</indep>
<indep V3.I 1>
  -2.85758430964e-03
</indep>
<indep V4.I 1>
  +2.05403063893e-07
</indep>
<indep Vout.V 1>
  +4.10142517339e-03
</indep>
<indep _net0.V 1>
  +3.08104595840e-04
</indep>
<indep Vin.V 1>
  +0.00000000000e+00
</indep>
<indep _net2.V 1>
  -1.00000000000e+01
</indep>
<indep _net1.V 1>
  +1.00000000000e+01
</indep>
